 (000.000000)  can0  02000100   [2]  00 00
 (000.000969)  can0  03C30F0F   [7]  87 87 87 87 87 87 87
 (000.009856)  can0  02000100   [2]  00 00
 (000.019860)  can0  02000100   [2]  00 00
 (000.020457)  can0  0C140400   [1]  13
 (000.023879)  can0       00E   [8]  70 80 13 98 00 00 00 00
 (000.029844)  can0  02000100   [2]  00 00
 (000.039851)  can0  02000100   [2]  00 00
 (000.049885)  can0  02000100   [2]  00 00
 (000.059805)  can0  02000100   [2]  00 00
 (000.069713)  can0  02000100   [2]  00 00
 (000.070341)  can0  0C140400   [1]  54
 (000.074450)  can0       00E   [8]  70 80 13 98 00 00 00 00
 (000.079864)  can0  02000100   [2]  00 00
 (000.089874)  can0  02000100   [2]  00 00
 (000.093659)  can0  0C140000   [1]  C1
 (000.099910)  can0  02000100   [2]  00 00
 (000.100883)  can0  03C30F0F   [7]  87 87 87 87 87 87 87
 (000.109832)  can0  02000100   [2]  00 00
 (000.119833)  can0  02000100   [2]  00 00
 (000.120444)  can0  0C140400   [1]  55
 (000.123780)  can0       00E   [8]  70 80 13 98 00 00 00 00
 (000.129812)  can0  02000100   [2]  00 00
 (000.139801)  can0  02000100   [2]  00 00
 (000.149852)  can0  02000100   [2]  00 00
 (000.159794)  can0  02000100   [2]  00 00
 (000.163704)  can0  14300000   [2]  00 00
 (000.169801)  can0  02000100   [2]  00 00
 (000.170447)  can0  0C140400   [1]  D6
 (000.174383)  can0       00E   [8]  70 80 13 98 00 00 00 00
 (000.179796)  can0  02000100   [2]  00 00
 (000.189828)  can0  02000100   [2]  00 00
 (000.199972)  can0  02000100   [2]  00 00
 (000.200963)  can0  03C30F0F   [7]  87 87 87 87 87 87 87
 (000.203707)  can0  140C0001   [2]  00 00
 (000.209797)  can0  02000100   [2]  00 00
 (000.219796)  can0  02000100   [2]  00 00
 (000.220437)  can0  0C140400   [1]  D7
 (000.223774)  can0       00E   [8]  70 80 13 98 00 00 00 00
 (000.229812)  can0  02000100   [2]  00 00
 (000.239819)  can0  02000100   [2]  00 00
 (000.249865)  can0  02000100   [2]  00 00
 (000.259812)  can0  02000100   [2]  00 00
 (000.269814)  can0  02000100   [2]  00 00
 (000.270450)  can0  0C140400   [1]  D8
 (000.274395)  can0       00E   [8]  70 80 13 98 00 00 00 00
 (000.279812)  can0  02000100   [2]  00 00
 (000.289813)  can0  02000100   [2]  00 00
 (000.299989)  can0  02000100   [2]  00 00
 (000.300983)  can0  03C30F0F   [7]  87 87 87 87 87 87 87
 (000.309849)  can0  02000100   [2]  00 00
 (000.319761)  can0  02000100   [2]  00 00
 (000.320430)  can0  0C140400   [1]  D9
 (000.323792)  can0       00E   [8]  70 80 13 98 00 00 00 00
 (000.329828)  can0  02000100   [2]  00 00
 (000.339811)  can0  02000100   [2]  00 00
 (000.349791)  can0  02000100   [2]  00 00
 (000.353593)  can0  1C0C0000   [1]  50
 (000.359810)  can0  02000100   [2]  00 00
 (000.369810)  can0  02000100   [2]  00 00
 (000.370450)  can0  0C140400   [1]  DA
 (000.374403)  can0       00E   [8]  70 80 13 98 00 00 00 00
 (000.379804)  can0  02000100   [2]  00 00
 (000.389817)  can0  02000100   [2]  00 00
 (000.399967)  can0  02000100   [2]  00 00
 (000.400958)  can0  03C30F0F   [7]  87 87 87 87 87 87 87
 (000.409839)  can0  02000100   [2]  00 00
 (000.413662)  can0  14300000   [2]  00 00
 (000.419847)  can0  02000100   [2]  00 00
 (000.420644)  can0  0C140400   [1]  DB
 (000.423716)  can0       00E   [8]  70 80 13 98 00 00 00 00
 (000.429810)  can0  02000100   [2]  00 00
 (000.439819)  can0  02000100   [2]  00 00
 (000.449867)  can0  02000100   [2]  00 00
 (000.453656)  can0  140C0001   [2]  00 00
 (000.459809)  can0  02000100   [2]  00 00
 (000.469822)  can0  02000100   [2]  00 00
 (000.470636)  can0  0C140400   [1]  DC
 (000.474403)  can0       00E   [8]  70 80 13 98 00 00 00 00
 (000.479812)  can0  02000100   [2]  00 00
 (000.489813)  can0  02000100   [2]  00 00
 (000.499967)  can0  02000100   [2]  00 00
 (000.500957)  can0  03C30F0F   [7]  87 87 87 87 87 87 87
 (000.509815)  can0  02000100   [2]  00 00
 (000.519848)  can0  02000100   [2]  00 00
 (000.520847)  can0  0C140400   [1]  DD
 (000.523791)  can0       00E   [8]  70 80 13 98 00 00 00 00
 (000.529849)  can0  02000100   [2]  00 00
 (000.539818)  can0  02000100   [2]  00 00
 (000.549871)  can0  02000100   [2]  00 00
 (000.559811)  can0  02000100   [2]  00 00
 (000.569812)  can0  02000100   [2]  00 00
 (000.570860)  can0  0C140400   [1]  DE
 (000.574396)  can0       00E   [8]  70 80 13 98 00 00 00 00
 (000.579813)  can0  02000100   [2]  00 00
 (000.589817)  can0  02000100   [2]  00 00
 (000.599888)  can0  02000100   [2]  00 00
 (000.600880)  can0  03C30F0F   [7]  87 87 87 87 87 87 87
 (000.609816)  can0  02000100   [2]  00 00
 (000.619819)  can0  02000100   [2]  00 00
 (000.621074)  can0  0C140400   [1]  DF
 (000.623803)  can0       00E   [8]  70 80 13 98 00 00 00 00
 (000.629783)  can0  02000100   [2]  00 00
 (000.639857)  can0  02000100   [2]  00 00
 (000.649874)  can0  02000100   [2]  00 00
 (000.659822)  can0  02000100   [2]  00 00
 (000.663589)  can0  14300000   [2]  00 00
 (000.669824)  can0  02000100   [2]  00 00
 (000.674312)  can0       00E   [8]  70 80 13 98 00 00 00 00
 (000.679824)  can0  02000100   [2]  00 00
 (000.689823)  can0  02000100   [2]  00 00
 (000.699969)  can0  02000100   [2]  00 00
 (000.700960)  can0  03C30F0F   [7]  87 87 87 87 87 87 87
 (000.703592)  can0  140C0001   [2]  00 00
 (000.709817)  can0  02000100   [2]  00 00
 (000.714032)  can0  1C300004   [8]  79 08 5D 00 2C 00 00 00
 (000.719824)  can0  02000100   [2]  00 00
 (000.723792)  can0       00E   [8]  70 80 13 98 00 00 00 00
 (000.729817)  can0  02000100   [2]  00 00
 (000.739872)  can0  02000100   [2]  00 00
 (000.749908)  can0  02000100   [2]  00 00
 (000.759820)  can0  02000100   [2]  00 00
 (000.769820)  can0  02000100   [2]  00 00
 (000.774404)  can0       00E   [8]  70 80 13 98 00 00 00 00
 (000.779813)  can0  02000100   [2]  00 00
 (000.789822)  can0  02000100   [2]  00 00
 (000.799975)  can0  02000100   [2]  00 00
 (000.800967)  can0  03C30F0F   [7]  87 87 87 87 87 87 87
 (000.809824)  can0  02000100   [2]  00 00
 (000.819816)  can0  02000100   [2]  00 00
 (000.823793)  can0       00E   [8]  70 80 13 98 00 00 00 00
 (000.829829)  can0  02000100   [2]  00 00
 (000.839826)  can0  02000100   [2]  00 00
 (000.849836)  can0  02000100   [2]  00 00
 (000.859853)  can0  02000100   [2]  00 00
 (000.869824)  can0  02000100   [2]  00 00
 (000.871509)  can0  0C140400   [1]  10
 (000.874405)  can0       00E   [8]  70 80 13 98 00 00 00 00
 (000.879719)  can0  02000100   [2]  00 00
 (000.889823)  can0  02000100   [2]  00 00
 (000.899968)  can0  02000100   [2]  00 00
 (000.900959)  can0  03C30F0F   [7]  87 87 87 87 87 87 87
 (000.909811)  can0  02000100   [2]  00 00
 (000.913535)  can0  14300000   [2]  00 00
 (000.919817)  can0  02000100   [2]  00 00
 (000.921701)  can0  0C140400   [1]  51
 (000.923701)  can0       00E   [8]  70 80 13 98 00 00 00 00
 (000.929821)  can0  02000100   [2]  00 00
 (000.939820)  can0  02000100   [2]  00 00
 (000.949870)  can0  02000100   [2]  00 00
 (000.953531)  can0  140C0001   [2]  00 00
 (000.959852)  can0  02000100   [2]  00 00
 (000.969853)  can0  02000100   [2]  00 00
 (000.971701)  can0  0C140400   [1]  12
 (000.974407)  can0       00E   [8]  70 80 13 98 00 00 00 00
 (000.979823)  can0  02000100   [2]  00 00
 (000.989827)  can0  02000100   [2]  00 00
 (000.993422)  can0  0C140000   [1]  C0
 (000.999968)  can0  02000100   [2]  00 00
 (001.000959)  can0  03C30F0F   [7]  87 87 87 87 87 87 87
 (001.009817)  can0  02000100   [2]  00 00
 (001.019818)  can0  02000100   [2]  00 00
 (001.021915)  can0  0C140400   [1]  13
 (001.023803)  can0       00E   [8]  70 80 13 98 00 00 00 00
 (001.029823)  can0  02000100   [2]  00 00
 (001.039821)  can0  02000100   [2]  00 00
 (001.049873)  can0  02000100   [2]  00 00
 (001.059822)  can0  02000100   [2]  00 00
 (001.069859)  can0  02000100   [2]  00 00
 (001.071919)  can0  0C140400   [1]  54
 (001.074416)  can0       00E   [8]  70 80 13 98 00 00 00 00
 (001.079849)  can0  02000100   [2]  00 00
 (001.089818)  can0  02000100   [2]  00 00
 (001.093393)  can0  0C140000   [1]  C1
 (001.099954)  can0  02000100   [2]  00 00
 (001.100942)  can0  03C30F0F   [7]  87 87 87 87 87 87 87
 (001.109828)  can0  02000100   [2]  00 00
 (001.119820)  can0  02000100   [2]  00 00
 (001.122133)  can0  0C140400   [1]  55
 (001.123829)  can0       00E   [8]  70 80 13 98 00 00 00 00
 (001.129719)  can0  02000100   [2]  00 00
 (001.139822)  can0  02000100   [2]  00 00
 (001.149886)  can0  02000100   [2]  00 00
 (001.159764)  can0  02000100   [2]  00 00
 (001.163454)  can0  14300000   [2]  00 00
 (001.169823)  can0  02000100   [2]  00 00
 (001.172139)  can0  0C140400   [1]  D6
 (001.174356)  can0       00E   [8]  70 80 13 98 00 00 00 00
 (001.179858)  can0  02000100   [2]  00 00
 (001.189854)  can0  02000100   [2]  00 00
 (001.199971)  can0  02000100   [2]  00 00
 (001.200962)  can0  03C30F0F   [7]  87 87 87 87 87 87 87
 (001.203458)  can0  140C0001   [2]  00 00
 (001.209819)  can0  02000100   [2]  00 00
 (001.219819)  can0  02000100   [2]  00 00
 (001.222349)  can0  0C140400   [1]  D7
 (001.223830)  can0       00E   [8]  70 80 13 98 00 00 00 00
 (001.229825)  can0  02000100   [2]  00 00
 (001.239823)  can0  02000100   [2]  00 00
 (001.249874)  can0  02000100   [2]  00 00
 (001.259824)  can0  02000100   [2]  00 00
 (001.269828)  can0  02000100   [2]  00 00
 (001.272346)  can0  0C140400   [1]  D8
 (001.274443)  can0       00E   [8]  70 80 13 98 00 00 00 00
 (001.279818)  can0  02000100   [2]  00 00
 (001.289852)  can0  02000100   [2]  00 00
 (001.299996)  can0  02000100   [2]  00 00
 (001.300989)  can0  03C30F0F   [7]  87 87 87 87 87 87 87
 (001.309825)  can0  02000100   [2]  00 00
 (001.319822)  can0  02000100   [2]  00 00
 (001.322576)  can0  0C140400   [1]  D9
 (001.323831)  can0       00E   [8]  70 80 13 98 00 00 00 00
 (001.329825)  can0  02000100   [2]  00 00
 (001.339825)  can0  02000100   [2]  00 00
 (001.349880)  can0  02000100   [2]  00 00
 (001.353321)  can0  1C0C0000   [1]  50
 (001.359826)  can0  02000100   [2]  00 00
 (001.369827)  can0  02000100   [2]  00 00
 (001.372563)  can0  0C140400   [1]  DA
 (001.374436)  can0       00E   [8]  70 80 13 98 00 00 00 00
 (001.379773)  can0  02000100   [2]  00 00
 (001.389825)  can0  02000100   [2]  00 00
 (001.400009)  can0  02000100   [2]  00 00
 (001.401001)  can0  03C30F0F   [7]  87 87 87 87 87 87 87
 (001.409777)  can0  02000100   [2]  00 00
 (001.413391)  can0  14300000   [2]  00 00
 (001.419825)  can0  02000100   [2]  00 00
 (001.422790)  can0  0C140400   [1]  DB
 (001.423830)  can0       00E   [8]  70 80 13 98 00 00 00 00
 (001.429828)  can0  02000100   [2]  00 00
 (001.439811)  can0  02000100   [2]  00 00
 (001.449880)  can0  02000100   [2]  00 00
 (001.453395)  can0  140C0001   [2]  00 00
 (001.459829)  can0  02000100   [2]  00 00
 (001.469824)  can0  02000100   [2]  00 00
 (001.472781)  can0  0C140400   [1]  DC
 (001.474446)  can0       00E   [8]  70 80 13 98 00 00 00 00
 (001.479831)  can0  02000100   [2]  00 00
 (001.489833)  can0  02000100   [2]  00 00
 (001.499976)  can0  02000100   [2]  00 00
 (001.500969)  can0  03C30F0F   [7]  87 87 87 87 87 87 87
 (001.509862)  can0  02000100   [2]  00 00
 (001.519860)  can0  02000100   [2]  00 00
 (001.522988)  can0  0C140400   [1]  DD
 (001.523955)  can0       00E   [8]  70 80 13 98 00 00 00 00
 (001.529830)  can0  02000100   [2]  00 00
 (001.539822)  can0  02000100   [2]  00 00
 (001.549895)  can0  02000100   [2]  00 00
 (001.559833)  can0  02000100   [2]  00 00
 (001.569824)  can0  02000100   [2]  00 00
 (001.573002)  can0  0C140400   [1]  DE
 (001.574449)  can0       00E   [8]  70 80 13 98 00 00 00 00
 (001.579827)  can0  02000100   [2]  00 00
 (001.589831)  can0  02000100   [2]  00 00
 (001.599972)  can0  02000100   [2]  00 00
 (001.600964)  can0  03C30F0F   [7]  87 87 87 87 87 87 87
 (001.609829)  can0  02000100   [2]  00 00
 (001.619864)  can0  02000100   [2]  00 00
 (001.623216)  can0  0C140400   [1]  DF
 (001.624185)  can0       00E   [8]  70 80 13 98 00 00 00 00
 (001.629869)  can0  02000100   [2]  00 00
 (001.639827)  can0  02000100   [2]  00 00
 (001.649878)  can0  02000100   [2]  00 00
 (001.659724)  can0  02000100   [2]  00 00
 (001.663322)  can0  14300000   [2]  00 00
 (001.669839)  can0  02000100   [2]  00 00
 (001.674383)  can0       00E   [8]  70 80 13 98 00 00 00 00
 (001.679830)  can0  02000100   [2]  00 00
 (001.689761)  can0  02000100   [2]  00 00
 (001.699983)  can0  02000100   [2]  00 00
 (001.700974)  can0  03C30F0F   [7]  87 87 87 87 87 87 87
 (001.703325)  can0  140C0001   [2]  00 00
 (001.709834)  can0  02000100   [2]  00 00
 (001.719832)  can0  02000100   [2]  00 00
 (001.723759)  can0  1C300004   [8]  79 08 5D 00 2C 00 00 00
 (001.724726)  can0       00E   [8]  70 80 13 98 00 00 00 00
 (001.729856)  can0  02000100   [2]  00 00
 (001.739864)  can0  02000100   [2]  00 00
 (001.749885)  can0  02000100   [2]  00 00
 (001.759835)  can0  02000100   [2]  00 00
 (001.769839)  can0  02000100   [2]  00 00
 (001.774418)  can0       00E   [8]  70 80 13 98 00 00 00 00
 (001.779837)  can0  02000100   [2]  00 00
 (001.789828)  can0  02000100   [2]  00 00
 (001.799982)  can0  02000100   [2]  00 00
 (001.800972)  can0  03C30F0F   [7]  87 87 87 87 87 87 87
 (001.809830)  can0  02000100   [2]  00 00
 (001.819830)  can0  02000100   [2]  00 00
 (001.823808)  can0       00E   [8]  70 80 13 98 00 00 00 00
 (001.829831)  can0  02000100   [2]  00 00
 (001.839864)  can0  02000100   [2]  00 00
 (001.849921)  can0  02000100   [2]  00 00
 (001.859835)  can0  02000100   [2]  00 00
 (001.869829)  can0  02000100   [2]  00 00
 (001.873652)  can0  0C140400   [1]  10
 (001.874621)  can0       00E   [8]  70 80 13 98 00 00 00 00
 (001.879830)  can0  02000100   [2]  00 00
 (001.889830)  can0  02000100   [2]  00 00
 (001.899984)  can0  02000100   [2]  00 00
 (001.900975)  can0  03C30F0F   [7]  87 87 87 87 87 87 87
 (001.909794)  can0  02000100   [2]  00 00
 (001.913255)  can0  14300000   [2]  00 00
 (001.919833)  can0  02000100   [2]  00 00
 (001.923811)  can0       00E   [8]  70 80 13 98 00 00 00 00
 (001.924460)  can0  0C140400   [1]  51
 (001.929838)  can0  02000100   [2]  00 00
 (001.939732)  can0  02000100   [2]  00 00
 (001.949918)  can0  02000100   [2]  00 00
 (001.953260)  can0  140C0001   [2]  00 00
 (001.959869)  can0  02000100   [2]  00 00
 (001.969820)  can0  02000100   [2]  00 00
 (001.973853)  can0  0C140400   [1]  12
 (001.974821)  can0       00E   [8]  70 80 13 98 00 00 00 00
 (001.979831)  can0  02000100   [2]  00 00
 (001.989843)  can0  02000100   [2]  00 00
 (001.993158)  can0  0C140000   [1]  C0
 (001.999985)  can0  02000100   [2]  00 00
 (002.000975)  can0  03C30F0F   [7]  87 87 87 87 87 87 87
 (002.009836)  can0  02000100   [2]  00 00
 (002.019834)  can0  02000100   [2]  00 00
 (002.023810)  can0       00E   [8]  70 80 13 98 00 00 00 00
 (002.024450)  can0  0C140400   [1]  13
 (002.029827)  can0  02000100   [2]  00 00
 (002.039836)  can0  02000100   [2]  00 00
 (002.049900)  can0  02000100   [2]  00 00
 (002.059871)  can0  02000100   [2]  00 00
 (002.069874)  can0  02000100   [2]  00 00
 (002.074071)  can0  0C140400   [1]  54
 (002.075040)  can0       00E   [8]  70 80 13 98 00 00 00 00
 (002.079833)  can0  02000100   [2]  00 00
 (002.089836)  can0  02000100   [2]  00 00
 (002.093128)  can0  0C140000   [1]  C1
 (002.099986)  can0  02000100   [2]  00 00
 (002.100977)  can0  03C30F0F   [7]  87 87 87 87 87 87 87
 (002.109838)  can0  02000100   [2]  00 00
 (002.119835)  can0  02000100   [2]  00 00
 (002.123811)  can0       00E   [8]  70 80 13 98 00 00 00 00
 (002.124450)  can0  0C140400   [1]  55
 (002.129837)  can0  02000100   [2]  00 00
 (002.139837)  can0  02000100   [2]  00 00
 (002.149883)  can0  02000100   [2]  00 00
 (002.159845)  can0  02000100   [2]  00 00
 (002.163193)  can0  14300000   [2]  00 00
 (002.169862)  can0  02000100   [2]  00 00
 (002.174418)  can0       00E   [8]  70 80 13 98 00 00 00 00
 (002.175065)  can0  0C140400   [1]  D6
 (002.179861)  can0  02000100   [2]  00 00
 (002.189732)  can0  02000100   [2]  00 00
 (002.199986)  can0  02000100   [2]  00 00
 (002.200977)  can0  03C30F0F   [7]  87 87 87 87 87 87 87
 (002.203193)  can0  140C0001   [2]  00 00
 (002.209835)  can0  02000100   [2]  00 00
 (002.219771)  can0  02000100   [2]  00 00
 (002.223819)  can0       00E   [8]  70 80 13 98 00 00 00 00
 (002.224515)  can0  0C140400   [1]  D7
 (002.229839)  can0  02000100   [2]  00 00
 (002.239837)  can0  02000100   [2]  00 00
 (002.249887)  can0  02000100   [2]  00 00
 (002.259849)  can0  02000100   [2]  00 00
 (002.269844)  can0  02000100   [2]  00 00
 (002.274424)  can0       00E   [8]  70 80 13 98 00 00 00 00
 (002.275063)  can0  0C140400   [1]  D8
 (002.279873)  can0  02000100   [2]  00 00
 (002.289867)  can0  02000100   [2]  00 00
 (002.299985)  can0  02000100   [2]  00 00
 (002.300973)  can0  03C30F0F   [7]  87 87 87 87 87 87 87
 (002.309840)  can0  02000100   [2]  00 00
 (002.319835)  can0  02000100   [2]  00 00
 (002.323821)  can0       00E   [8]  70 80 13 98 00 00 00 00
 (002.324748)  can0  0C140400   [1]  D9
 (002.329836)  can0  02000100   [2]  00 00
 (002.339837)  can0  02000100   [2]  00 00
 (002.349897)  can0  02000100   [2]  00 00
 (002.353053)  can0  1C0C0000   [1]  50
 (002.359849)  can0  02000100   [2]  00 00
 (002.369840)  can0  02000100   [2]  00 00
 (002.374431)  can0       00E   [8]  70 80 13 98 00 00 00 00
 (002.375070)  can0  0C140400   [1]  DA
 (002.379840)  can0  02000100   [2]  00 00
 (002.389877)  can0  02000100   [2]  00 00
 (002.400020)  can0  02000100   [2]  00 00
 (002.401010)  can0  03C30F0F   [7]  87 87 87 87 87 87 87
 (002.409836)  can0  02000100   [2]  00 00
 (002.413123)  can0  14300000   [2]  00 00
 (002.419837)  can0  02000100   [2]  00 00
 (002.423816)  can0       00E   [8]  70 80 13 98 00 00 00 00
 (002.424959)  can0  0C140400   [1]  DB
 (002.429846)  can0  02000100   [2]  00 00
 (002.439798)  can0  02000100   [2]  00 00
 (002.449886)  can0  02000100   [2]  00 00
 (002.453125)  can0  140C0001   [2]  00 00
 (002.459850)  can0  02000100   [2]  00 00
 (002.469737)  can0  02000100   [2]  00 00
 (002.474423)  can0       00E   [8]  70 80 13 98 00 00 00 00
 (002.475063)  can0  0C140400   [1]  DC
 (002.479841)  can0  02000100   [2]  00 00
 (002.489835)  can0  02000100   [2]  00 00
 (002.499994)  can0  02000100   [2]  00 00
 (002.500986)  can0  03C30F0F   [7]  87 87 87 87 87 87 87
 (002.509879)  can0  02000100   [2]  00 00
 (002.519844)  can0  02000100   [2]  00 00
 (002.523820)  can0       00E   [8]  70 80 13 98 00 00 00 00
 (002.525164)  can0  0C140400   [1]  DD
 (002.529838)  can0  02000100   [2]  00 00
 (002.539838)  can0  02000100   [2]  00 00
 (002.549891)  can0  02000100   [2]  00 00
 (002.559852)  can0  02000100   [2]  00 00
 (002.569842)  can0  02000100   [2]  00 00
 (002.574433)  can0       00E   [8]  70 80 13 98 00 00 00 00
 (002.575168)  can0  0C140400   [1]  DE
 (002.579842)  can0  02000100   [2]  00 00
 (002.589846)  can0  02000100   [2]  00 00
 (002.599988)  can0  02000100   [2]  00 00
 (002.600980)  can0  03C30F0F   [7]  87 87 87 87 87 87 87
 (002.609871)  can0  02000100   [2]  00 00
 (002.619880)  can0  02000100   [2]  00 00
 (002.623823)  can0       00E   [8]  70 80 13 98 00 00 00 00
 (002.625383)  can0  0C140400   [1]  DF
 (002.629843)  can0  02000100   [2]  00 00
 (002.639851)  can0  02000100   [2]  00 00
 (002.649897)  can0  02000100   [2]  00 00
 (002.659856)  can0  02000100   [2]  00 00
 (002.663066)  can0  14300000   [2]  00 00
 (002.669846)  can0  02000100   [2]  00 00
 (002.674430)  can0       00E   [8]  70 80 13 98 00 00 00 00
 (002.679836)  can0  02000100   [2]  00 00
 (002.689843)  can0  02000100   [2]  00 00
 (002.699989)  can0  02000100   [2]  00 00
 (002.700981)  can0  03C30F0F   [7]  87 87 87 87 87 87 87
 (002.703067)  can0  140C0001   [2]  00 00
 (002.709847)  can0  02000100   [2]  00 00
 (002.719798)  can0  02000100   [2]  00 00
 (002.723822)  can0       00E   [8]  70 80 13 98 00 00 00 00
 (002.729874)  can0  02000100   [2]  00 00
 (002.733495)  can0  1C300004   [8]  79 08 5D 00 2C 00 00 00
 (002.739839)  can0  02000100   [2]  00 00
 (002.749836)  can0  02000100   [2]  00 00
 (002.759859)  can0  02000100   [2]  00 00
 (002.769842)  can0  02000100   [2]  00 00
 (002.774424)  can0       00E   [8]  70 80 13 98 00 00 00 00
 (002.779842)  can0  02000100   [2]  00 00
 (002.789846)  can0  02000100   [2]  00 00
 (002.799988)  can0  02000100   [2]  00 00
 (002.800980)  can0  03C30F0F   [7]  87 87 87 87 87 87 87
 (002.809844)  can0  02000100   [2]  00 00
 (002.819845)  can0  02000100   [2]  00 00
 (002.823821)  can0       00E   [8]  70 80 13 98 00 00 00 00
 (002.829881)  can0  02000100   [2]  00 00
 (002.839872)  can0  02000100   [2]  00 00
 (002.849895)  can0  02000100   [2]  00 00
 (002.859859)  can0  02000100   [2]  00 00
 (002.869851)  can0  02000100   [2]  00 00
 (002.874433)  can0       00E   [8]  70 80 13 98 00 00 00 00
 (002.875817)  can0  0C140400   [1]  10
 (002.879852)  can0  02000100   [2]  00 00
 (002.889843)  can0  02000100   [2]  00 00
 (002.899990)  can0  02000100   [2]  00 00
 (002.900980)  can0  03C30F0F   [7]  87 87 87 87 87 87 87
 (002.909845)  can0  02000100   [2]  00 00
 (002.912989)  can0  14300000   [2]  00 00
 (002.919845)  can0  02000100   [2]  00 00
 (002.923817)  can0       00E   [8]  70 80 13 98 00 00 00 00
 (002.926009)  can0  0C140400   [1]  51
 (002.929850)  can0  02000100   [2]  00 00
 (002.939882)  can0  02000100   [2]  00 00
 (002.949940)  can0  02000100   [2]  00 00
 (002.952992)  can0  140C0001   [2]  00 00
 (002.959841)  can0  02000100   [2]  00 00
 (002.969802)  can0  02000100   [2]  00 00
 (002.974433)  can0       00E   [8]  70 80 13 98 00 00 00 00
 (002.976026)  can0  0C140400   [1]  12
 (002.979853)  can0  02000100   [2]  00 00
 (002.989850)  can0  02000100   [2]  00 00
 (002.992891)  can0  0C140000   [1]  C0
 (002.999916)  can0  02000100   [2]  00 00
 (003.000908)  can0  03C30F0F   [7]  87 87 87 87 87 87 87
 (003.009846)  can0  02000100   [2]  00 00
 (003.019846)  can0  02000100   [2]  00 00
 (003.023818)  can0       00E   [8]  70 80 13 98 00 00 00 00
 (003.026211)  can0  0C140400   [1]  13
 (003.029828)  can0  02000100   [2]  00 00
 (003.039851)  can0  02000100   [2]  00 00
 (003.049930)  can0  02000100   [2]  00 00
 (003.059883)  can0  02000100   [2]  00 00
 (003.069856)  can0  02000100   [2]  00 00
 (003.074364)  can0       00E   [8]  70 80 13 98 00 00 00 00
 (003.076220)  can0  0C140400   [1]  54
 (003.079855)  can0  02000100   [2]  00 00
 (003.089851)  can0  02000100   [2]  00 00
 (003.092863)  can0  0C140000   [1]  C1
 (003.099992)  can0  02000100   [2]  00 00
 (003.100983)  can0  03C30F0F   [7]  87 87 87 87 87 87 87
 (003.109850)  can0  02000100   [2]  00 00
 (003.119841)  can0  02000100   [2]  00 00
 (003.123826)  can0       00E   [8]  70 80 13 98 00 00 00 00
 (003.126437)  can0  0C140400   [1]  55
 (003.129855)  can0  02000100   [2]  00 00
 (003.139844)  can0  02000100   [2]  00 00
 (003.149904)  can0  02000100   [2]  00 00
 (003.159885)  can0  02000100   [2]  00 00
 (003.162925)  can0  14300000   [2]  00 00
 (003.169879)  can0  02000100   [2]  00 00
 (003.174433)  can0       00E   [8]  70 80 13 98 00 00 00 00
 (003.176443)  can0  0C140400   [1]  D6
 (003.179844)  can0  02000100   [2]  00 00
 (003.189841)  can0  02000100   [2]  00 00
 (003.200001)  can0  02000100   [2]  00 00
 (003.200993)  can0  03C30F0F   [7]  87 87 87 87 87 87 87
 (003.202920)  can0  140C0001   [2]  00 00
 (003.209853)  can0  02000100   [2]  00 00
 (003.219851)  can0  02000100   [2]  00 00
 (003.223827)  can0       00E   [8]  70 80 13 98 00 00 00 00
 (003.226656)  can0  0C140400   [1]  D7
 (003.229844)  can0  02000100   [2]  00 00
 (003.239847)  can0  02000100   [2]  00 00
 (003.249824)  can0  02000100   [2]  00 00
 (003.259850)  can0  02000100   [2]  00 00
 (003.269902)  can0  02000100   [2]  00 00
 (003.274433)  can0       00E   [8]  70 80 13 98 00 00 00 00
 (003.276652)  can0  0C140400   [1]  D8
 (003.279818)  can0  02000100   [2]  00 00
 (003.289853)  can0  02000100   [2]  00 00
 (003.299996)  can0  02000100   [2]  00 00
 (003.300988)  can0  03C30F0F   [7]  87 87 87 87 87 87 87
 (003.309853)  can0  02000100   [2]  00 00
 (003.319846)  can0  02000100   [2]  00 00
 (003.323725)  can0       00E   [8]  70 80 13 98 00 00 00 00
 (003.326881)  can0  0C140400   [1]  D9
 (003.329850)  can0  02000100   [2]  00 00
 (003.339849)  can0  02000100   [2]  00 00
 (003.349908)  can0  02000100   [2]  00 00
 (003.352791)  can0  1C0C0000   [1]  50
 (003.359850)  can0  02000100   [2]  00 00
 (003.369853)  can0  02000100   [2]  00 00
 (003.374441)  can0       00E   [8]  70 80 13 98 00 00 00 00
 (003.376871)  can0  0C140400   [1]  DA
 (003.379884)  can0  02000100   [2]  00 00
 (003.389887)  can0  02000100   [2]  00 00
 (003.400001)  can0  02000100   [2]  00 00
 (003.400991)  can0  03C30F0F   [7]  87 87 87 87 87 87 87
 (003.409855)  can0  02000100   [2]  00 00
 (003.412854)  can0  14300000   [2]  00 00
 (003.419848)  can0  02000100   [2]  00 00
