(1468378469.543285) can0 00C#
(1468378469.564066) can0 00E#50C01C8F00000000
(1468378469.564450) can0 7B3#
(1468378469.603481) can0 7B3#
(1468378469.614245) can0 00E#50C01C8F00000000
(1468378469.614915) can0 7B3#
(1468378469.615394) can0 7B3#
(1468378469.643552) can0 7B3#
(1468378469.664027) can0 00E#50C01C8F00000000
(1468378469.664553) can0 7B3#R
(1468378469.689712) can0 7B3#
(1468378469.712441) can0 7B3#R
(1468378469.714408) can0 00E#50C01C8F00000000
(1468378469.714800) can0 7B3#
(1468378469.739712) can0 7B3#
(1468378469.762453) can0 7B3#R
(1468378469.764191) can0 00E#50C01C8F00000000
(1468378469.764583) can0 7B3#
(1468378469.765600) can0 7B3#
(1468378469.783687) can0 1F00D30C#
(1468378469.784855) can0 1F109201#
(1468378469.785999) can0 1F20B114#
(1468378469.787248) can0 1F30948B#
(1468378469.788390) can0 1F40ED00#
(1468378469.789517) can0 1F500600#
(1468378469.790638) can0 1F602C00#
(1468378469.792863) can0 1F704E00#
(1468378469.793630) can0 1F01D38F#
(1468378469.794374) can0 1F119280#
(1468378469.795110) can0 1F21B119#
(1468378469.795853) can0 1F31948B#
(1468378469.796612) can0 1F41ED00#
(1468378469.797380) can0 1F510600#
(1468378469.798132) can0 1F612C00#
(1468378469.798890) can0 1F714E00#
(1468378469.799559) can0 1F02D3E4#R
(1468378469.800224) can0 1F12928C#R
(1468378469.800840) can0 1F22B11C#R
(1468378469.801448) can0 1F32948C#R
(1468378469.802081) can0 1F42ED00#R
(1468378469.802713) can0 1F520600#R
(1468378469.803395) can0 1F622C00#R
(1468378469.804027) can0 1F724E00#R
(1468378469.805260) can0 1F03D350#
(1468378469.806286) can0 1F1392C0#
(1468378469.807397) can0 1F23B11C#
(1468378469.808395) can0 1F33948F#
(1468378469.810030) can0 1F43ED00#
(1468378469.811190) can0 1F530600#
(1468378469.812215) can0 1F632C00#
(1468378469.814256) can0 00E#50C01C8F00000000
(1468378469.814840) can0 1F734E00#
(1468378469.815800) can0 1F04D316#
(1468378469.816472) can0 1F149297#
(1468378469.817161) can0 1F24B100#
(1468378469.817841) can0 1F349400#
(1468378469.818526) can0 1F44ED03#
(1468378469.819209) can0 1F540650#
(1468378469.820002) can0 1F642C02#
(1468378469.820682) can0 1F744E01#
(1468378469.863878) can0 00E#50C01C8F00000000
(1468378469.873662) can0 7B1#
(1468378469.914233) can0 00E#50C01C8F00000000
(1468378469.924056) can0 7B0#
(1468378469.944639) can0 780#2280000010000000
(1468378469.945733) can0 792#C080000026000000
(1468378469.963542) can0 1C0C0200#28
(1468378469.964497) can0 00E#50C01C8F00000000
(1468378469.986660) can0 1C2C0300#1336144C0710
(1468378470.014228) can0 00E#50C01C8F00000000
(1468378470.034045) can0 1C240301#
(1468378470.040225) can0 03C30F0F#87878787878787
(1468378470.063982) can0 00E#50C01C8F00000000
(1468378470.114119) can0 00E#50C01C8F00000000
(1468378470.140262) can0 03C30F0F#87878787878787
(1468378470.147888) can0 780#2280000010000000
(1468378470.163990) can0 00E#50C01C8F00000000
(1468378470.187886) can0 792#4080000000000000
(1468378470.189619) can0 780#4280000000000000
(1468378470.190735) can0 792#2080000010000000
(1468378470.193560) can0 780#2281000006000100
(1468378470.203697) can0 140C0201#0000
(1468378470.214228) can0 00E#50C01C8F00000000
(1468378470.232409) can0 792#4081000000000000
(1468378470.234736) can0 780#428F000000000000
(1468378470.235786) can0 792#208F000088920000
(1468378470.238242) can0 780#2281000002000000
(1468378470.239813) can0 792#4081000000000000
(1468378470.240803) can0 03C30F0F#87878787878787
(1468378470.241787) can0 780#428F000000000000
(1468378470.242892) can0 792#208F0000B7410000
(1468378470.245053) can0 780#2281000008000100
(1468378470.246375) can0 792#4081000000000000
(1468378470.248096) can0 780#428F000000000000
(1468378470.249198) can0 792#208F0000AFC20000
(1468378470.251273) can0 780#2281000009000100
(1468378470.255562) can0 792#4081000000000000
(1468378470.257372) can0 780#428F000000000000
(1468378470.258473) can0 792#208F0000F65E0000
(1468378470.260485) can0 780#2280000000000000
(1468378470.261614) can0 792#4080000000000000
(1468378470.263983) can0 00E#50C01C8F00000000
(1468378470.293401) can0 780#4240000000000000
(1468378470.294520) can0 792#20400000000007FF
(1468378470.296336) can0 780#4250000000000000
(1468378470.297451) can0 792#2050000000000000
(1468378470.299724) can0 040#00000000
(1468378470.301105) can0 781#2280000011000000
(1468378470.302234) can0 792#4180000000000000
(1468378470.303463) can0 781#4280000000000000
(1468378470.304576) can0 792#2180000011000000
(1468378470.305815) can0 781#2281000011000100
(1468378470.314233) can0 00E#50C01C8F00000000
(1468378470.315216) can0 792#4181000000000000
(1468378470.316439) can0 781#428F000000000000
(1468378470.317543) can0 792#218F0000BBB00000
(1468378470.318987) can0 781#2280000000000000
(1468378470.320070) can0 792#4180000000000000
(1468378470.329102) can0 041#00000000
(1468378470.333106) can0 052#C000FF00
(1468378470.333922) can0 052#D200FF02
(1468378470.334683) can0 052#F000FF01
(1468378470.335436) can0 0C280200#00
(1468378470.336092) can0 0C140200#C0
(1468378470.336740) can0 0C140200#C1
(1468378470.340274) can0 03C30F0F#87878787878787
(1468378470.343151) can0 042#00000000
(1468378470.345439) can0 783#2280000013000000
(1468378470.346568) can0 792#4380000000000000
(1468378470.348025) can0 783#4280000000000000
(1468378470.349150) can0 792#2380000013000000
(1468378470.350578) can0 783#2281000006000100
(1468378470.352115) can0 792#4381000000000000
(1468378470.354579) can0 783#428F000000000000
(1468378470.355628) can0 792#238F000088920000
(1468378470.358101) can0 783#2281000002000000
(1468378470.359747) can0 792#4381000000000000
(1468378470.361110) can0 783#428F000000000000
(1468378470.362207) can0 792#238F0000B7410000
(1468378470.364055) can0 00E#50C01C8F00000000
(1468378470.365551) can0 783#2281000008000100
(1468378470.366824) can0 792#4381000000000000
(1468378470.368264) can0 783#428F000000000000
(1468378470.369363) can0 792#238F0000AFC20000
(1468378470.371738) can0 783#228100000A000100
(1468378470.414275) can0 00E#50C01C8F00000000
(1468378470.436225) can0 792#4381000000000000
(1468378470.437752) can0 783#428F000000000000
(1468378470.438837) can0 792#238F0000F53B0000
(1468378470.440232) can0 03C30F0F#87878787878787
(1468378470.441761) can0 783#2281000003000000
(1468378470.446850) can0 792#4381000000000000
(1468378470.448391) can0 783#428C000004000000
(1468378470.449532) can0 792#238C0000F6FF0100
(1468378470.451020) can0 783#2285000008000000
(1468378470.452085) can0 792#4385000000000000
(1468378470.454662) can0 783#428C000004000000
(1468378470.455807) can0 792#238C000009088140
(1468378470.457399) can0 783#428C000001000000
(1468378470.458540) can0 792#238C000003000000
(1468378470.460424) can0 783#228100000A000100
(1468378470.461681) can0 792#4381000000000000
(1468378470.463329) can0 783#428A000000000000
(1468378470.464289) can0 00E#50C01C8F00000000
(1468378470.465258) can0 792#238A000030000000
(1468378470.477556) can0 783#228100000B000100
(1468378470.514278) can0 00E#50C01C8F00000000
(1468378470.540170) can0 03C30F0F#87878787878787
(1468378470.564031) can0 00E#50C01C8F00000000
(1468378470.571996) can0 792#4381000000000000
(1468378470.574224) can0 783#428F000000000000
(1468378470.575272) can0 792#238F00004D620000
(1468378470.586426) can0 783#428A000000000000
(1468378470.587489) can0 792#238A000030000000
(1468378470.600356) can0 783#2281000019000100
(1468378470.614271) can0 00E#50C01C8F00000000
(1468378470.640163) can0 03C30F0F#87878787878787
(1468378470.664030) can0 00E#50C01C8F00000000
(1468378470.696236) can0 792#4381000000000000
(1468378470.697811) can0 783#428F000000000000
(1468378470.698896) can0 792#238F000063910000
(1468378470.701283) can0 783#228100000C000100
(1468378470.714277) can0 00E#50C01C8F00000000
(1468378470.740139) can0 03C30F0F#87878787878787
(1468378470.746919) can0 792#4381000000000000
(1468378470.748379) can0 783#428F000000000000
(1468378470.749443) can0 792#238F0000AD390000
(1468378470.761363) can0 783#428A000000000000
(1468378470.762482) can0 792#238A000030000000
(1468378470.764114) can0 00E#50C01C8F00000000
(1468378470.775668) can0 783#228100000D000100
(1468378470.801921) can0 792#4381000000000000
(1468378470.803400) can0 783#428F000000000000
(1468378470.804497) can0 792#238F0000A5550000
(1468378470.807401) can0 783#2281000013000100
(1468378470.813146) can0 792#4381000000000000
(1468378470.814348) can0 00E#50C01C8F00000000
(1468378470.815323) can0 783#428F000000000000
(1468378470.816413) can0 792#238F0000EED80000
(1468378470.818826) can0 783#228100000E000100
(1468378470.820350) can0 792#4381000000000000
(1468378470.821798) can0 783#428F000000000000
(1468378470.822895) can0 792#238F00007B2D0000
(1468378470.825527) can0 783#2281000014000100
(1468378470.840138) can0 03C30F0F#87878787878787
(1468378470.846138) can0 792#4381000000000000
(1468378470.847715) can0 783#428F000000000000
(1468378470.848768) can0 792#238F0000B10C0000
(1468378470.851028) can0 783#2280000000000000
(1468378470.852148) can0 792#4380000000000000
(1468378470.864031) can0 00E#50C01C8F00000000
(1468378470.900594) can0 783#4240000000000000
(1468378470.901728) can0 792#23400000000007FF
(1468378470.903361) can0 783#4250000000000000
(1468378470.904513) can0 792#2350000007000000
(1468378470.908058) can0 043#00000000
(1468378470.914236) can0 00E#50C01C8F00000000
(1468378470.919911) can0 784#2280000014000000
(1468378470.920991) can0 792#4480000000000000
(1468378470.923190) can0 784#2281000008000100
(1468378470.924734) can0 792#4481000000000000
(1468378470.926991) can0 784#528B000002000001
(1468378470.938367) can0 792#248B0000AFC20000
(1468378470.940297) can0 03C30F0F#87878787878787
(1468378470.941296) can0 784#2280000000000000
(1468378470.942385) can0 792#4480000000000000
(1468378470.954721) can0 784#2280000014000000
(1468378470.955807) can0 792#4480000000000000
(1468378470.958007) can0 784#2281000003500201
(1468378470.963984) can0 00E#50C01C8F00000000
(1468378470.964623) can0 1C0C0200#28
(1468378470.967961) can0 792#4481000000000000
(1468378470.970565) can0 784#528B000002000001
(1468378470.977161) can0 792#248B00002C360000
(1468378470.980452) can0 784#2280000000000000
(1468378470.981568) can0 792#4480000000000000
(1468378471.004632) can0 044#00000000
(1468378471.005438) can0 042#80000000
(1468378471.006143) can0 040#80000000
(1468378471.006855) can0 041#80000000
(1468378471.007551) can0 043#80000000
(1468378471.008247) can0 044#80000000
(1468378471.008963) can0 052#00000000
(1468378471.009657) can0 052#12000002
(1468378471.010337) can0 052#93000000
(1468378471.011097) can0 052#83000001
(1468378471.013793) can0 0C140400#02
(1468378471.014481) can0 063#00000000
(1468378471.015442) can0 00E#50C01C8F00000000
(1468378471.016155) can0 062#13000002
(1468378471.016811) can0 0C140200#C0
(1468378471.017499) can0 062#20000000
(1468378471.018228) can0 0C180302#0003
(1468378471.018918) can0 062#30000001
(1468378471.019629) can0 14300200#0000
(1468378471.020318) can0 062#80000080
(1468378471.021439) can0 1C300204#E08A0200C4590200
(1468378471.022087) can0 0A040300#00
(1468378471.023896) can0 0C180200#0101
(1468378471.024536) can0 14300201#00
(1468378471.033996) can0 0C180201#200001
(1468378471.040357) can0 03C30F0F#87878787878787
(1468378471.063950) can0 00E#50C01C8F00000000
(1468378471.073919) can0 0C180200#0101
(1468378471.113848) can0 0C140200#C1
(1468378471.114807) can0 00E#50C01C8F00000000
(1468378471.140351) can0 03C30F0F#87878787878787
(1468378471.164026) can0 00E#50C01C8F00000000
(1468378471.213976) can0 140C0201#0000
(1468378471.214930) can0 00E#50C01C8F00000000
(1468378471.240357) can0 03C30F0F#87878787878787
(1468378471.264021) can0 00E#50C01C8F00000000
(1468378471.264732) can0 14300200#0000
(1468378471.314347) can0 00E#50C01C8F00000000
(1468378471.340389) can0 03C30F0F#87878787878787
(1468378471.364027) can0 00E#50C01C8F00000000
(1468378471.414357) can0 00E#50C01C8F00000000
(1468378471.430039) can0 02000300#0000
(1468378471.440162) can0 02000300#0000
(1468378471.441153) can0 03C30F0F#87878787878787
(1468378471.450031) can0 02000300#0000
(1468378471.457462) can0 0C180101#020201
(1468378471.460036) can0 02000300#0000
(1468378471.464023) can0 00E#50C01C8F00000000
(1468378471.464751) can0 140C0201#0000
(1468378471.470029) can0 02000300#0000
(1468378471.480025) can0 02000300#0000
(1468378471.490078) can0 02000300#0000
(1468378471.500030) can0 02000300#0000
(1468378471.510032) can0 02000300#0000
(1468378471.514030) can0 14300200#0000
(1468378471.514988) can0 00E#50C01C8F00000000
(1468378471.520053) can0 02000300#0000
(1468378471.530067) can0 02000300#0000
(1468378471.540275) can0 02000300#0000
(1468378471.541294) can0 03C30F0F#87878787878787
(1468378471.550084) can0 02000300#0000
(1468378471.560024) can0 02000300#0000
(1468378471.564008) can0 00E#50C01C8F00000000
(1468378471.570030) can0 02000300#0000
(1468378471.580030) can0 02000300#0000
(1468378471.590079) can0 02000300#0000
(1468378471.600027) can0 02000300#0000
(1468378471.610031) can0 02000300#0000
(1468378471.614675) can0 00E#50C01C8F00000000
(1468378471.620033) can0 02000300#0000
(1468378471.630010) can0 02000300#0000
(1468378471.633998) can0 0C140200#C0
(1468378471.640198) can0 02000300#0000
(1468378471.641191) can0 03C30F0F#87878787878787
(1468378471.650028) can0 02000300#0000
(1468378471.659965) can0 02000300#0000
(1468378471.664008) can0 00E#50C01C8F00000000
(1468378471.670029) can0 02000300#0000
(1468378471.680026) can0 02000300#0000
(1468378471.690063) can0 02000300#0000
(1468378471.700031) can0 02000300#0000
(1468378471.710024) can0 02000300#0000
(1468378471.714108) can0 140C0201#0000
(1468378471.715068) can0 00E#50C01C8F00000000
(1468378471.720022) can0 02000300#0000
(1468378471.730027) can0 02000300#0000
(1468378471.734015) can0 0C140200#C1
(1468378471.740204) can0 02000300#0000
(1468378471.741191) can0 03C30F0F#87878787878787
(1468378471.750061) can0 02000300#0000
(1468378471.760026) can0 02000300#0000
(1468378471.764058) can0 00E#50C01C8F00000000
(1468378471.764769) can0 14300200#0000
(1468378471.770032) can0 02000300#0000
(1468378471.780024) can0 02000300#0000
(1468378471.790103) can0 02000300#0000
(1468378471.798441) can0 0C140400#82
(1468378471.800052) can0 02000300#0000
(1468378471.804187) can0 0C180201#210001
(1468378471.804811) can0 14300201#1B
(1468378471.810021) can0 02000300#0000
(1468378471.814110) can0 0C180200#0101
(1468378471.815070) can0 00E#50C01C8F00000000
(1468378471.820024) can0 02000300#0000
(1468378471.830028) can0 02000300#0000
(1468378471.840165) can0 02000300#0000
(1468378471.841156) can0 03C30F0F#87878787878787
(1468378471.850053) can0 02000300#0000
(1468378471.856834) can0 0C180101#030201
(1468378471.860057) can0 02000300#0000
(1468378471.864003) can0 00E#50C01C8F00000000
(1468378471.870026) can0 02000300#0000
(1468378471.880022) can0 02000300#0000
(1468378471.890069) can0 02000300#0000
(1468378471.900025) can0 02000300#0000
(1468378471.909965) can0 02000300#0000
(1468378471.914671) can0 00E#50C01C8F00000000
(1468378471.920024) can0 02000300#0000
(1468378471.930030) can0 02000300#0000
(1468378471.940103) can0 02000300#0000
(1468378471.941090) can0 03C30F0F#87878787878787
(1468378471.950032) can0 02000300#0000
(1468378471.960051) can0 02000300#0000
(1468378471.964012) can0 00E#50C01C8F00000000
(1468378471.964740) can0 140C0201#0000
(1468378471.965380) can0 1C0C0200#28
(1468378471.970061) can0 02000300#0000
(1468378471.980035) can0 02000300#0000
(1468378471.990083) can0 02000300#0000
(1468378472.000023) can0 02000300#0000
(1468378472.010029) can0 02000300#0000
(1468378472.014168) can0 14300200#0000
(1468378472.015128) can0 00E#50C01C8F00000000
(1468378472.020031) can0 02000300#0000
(1468378472.024609) can0 1C300204#E08A0200C4590200
(1468378472.030024) can0 02000300#0000
(1468378472.040164) can0 02000300#0000
(1468378472.041156) can0 03C30F0F#87878787878787
(1468378472.050033) can0 02000300#0000
(1468378472.060034) can0 02000300#0000
(1468378472.064013) can0 00E#50C01C8F00000000
(1468378472.070059) can0 02000300#0000
(1468378472.080063) can0 02000300#0000
(1468378472.090084) can0 02000300#0000
(1468378472.100028) can0 02000300#0000
(1468378472.110029) can0 02000300#0000
(1468378472.114672) can0 00E#50C01C8F00000000
(1468378472.120026) can0 02000300#0000
(1468378472.130031) can0 02000300#0000
(1468378472.140162) can0 02000300#0000
(1468378472.141156) can0 03C30F0F#87878787878787
(1468378472.150025) can0 02000300#0000
(1468378472.159981) can0 02000300#0000
(1468378472.164005) can0 00E#50C01C8F00000000
(1468378472.170027) can0 02000300#0000
(1468378472.180067) can0 02000300#0000
(1468378472.190036) can0 02000300#0000
(1468378472.200031) can0 02000300#0000
(1468378472.210036) can0 02000300#0000
(1468378472.214241) can0 140C0201#0000
(1468378472.215201) can0 00E#50C01C8F00000000
(1468378472.220008) can0 02000300#0000
(1468378472.230032) can0 02000300#0000
(1468378472.240172) can0 02000300#0000
(1468378472.241164) can0 03C30F0F#87878787878787
(1468378472.250033) can0 02000300#0000
(1468378472.260034) can0 02000300#0000
(1468378472.263933) can0 00E#50C01C8F00000000
(1468378472.264646) can0 14300200#0000
(1468378472.270028) can0 02000300#0000
(1468378472.280032) can0 02000300#0000
(1468378472.290109) can0 02000300#0000
(1468378472.300061) can0 02000300#0000
(1468378472.310030) can0 02000300#0000
(1468378472.314673) can0 00E#50C01C8F00000000
(1468378472.320026) can0 02000300#0000
(1468378472.330032) can0 02000300#0000
(1468378472.340168) can0 02000300#0000
(1468378472.341156) can0 03C30F0F#87878787878787
(1468378472.350034) can0 02000300#0000
(1468378472.360029) can0 02000300#0000
(1468378472.364022) can0 00E#50C01C8F00000000
(1468378472.370031) can0 02000300#0000
(1468378472.380031) can0 02000300#0000
(1468378472.390079) can0 02000300#0000
(1468378472.400056) can0 02000300#0000
(1468378472.410070) can0 02000300#0000
(1468378472.414681) can0 00E#50C01C8F00000000
(1468378472.420039) can0 02000300#0000
(1468378472.430031) can0 02000300#0000
(1468378472.440091) can0 02000300#0000
(1468378472.441084) can0 03C30F0F#87878787878787
(1468378472.450032) can0 02000300#0000
(1468378472.460034) can0 02000300#0000
(1468378472.464012) can0 00E#50C01C8F00000000
(1468378472.464741) can0 140C0201#0000
(1468378472.469965) can0 02000300#0000
(1468378472.480031) can0 02000300#0000
(1468378472.490084) can0 02000300#0000
(1468378472.500037) can0 02000300#0000
(1468378472.510069) can0 02000300#0000
(1468378472.514305) can0 14300200#0000
(1468378472.515266) can0 00E#50C01C8F00000000
(1468378472.520063) can0 02000300#0000
(1468378472.530026) can0 02000300#0000
(1468378472.540172) can0 02000300#0000
(1468378472.541164) can0 03C30F0F#87878787878787
(1468378472.550029) can0 02000300#0000
(1468378472.560029) can0 02000300#0000
(1468378472.564013) can0 00E#50C01C8F00000000
(1468378472.570034) can0 02000300#0000
(1468378472.580027) can0 02000300#0000
(1468378472.590084) can0 02000300#0000
(1468378472.600031) can0 02000300#0000
(1468378472.610029) can0 02000300#0000
(1468378472.614680) can0 00E#50C01C8F00000000
(1468378472.620071) can0 02000300#0000
(1468378472.630063) can0 02000300#0000
(1468378472.634267) can0 0C140200#C0
(1468378472.640163) can0 02000300#0000
(1468378472.641157) can0 03C30F0F#87878787878787
(1468378472.650034) can0 02000300#0000
(1468378472.660034) can0 02000300#0000
(1468378472.664022) can0 00E#50C01C8F00000000
(1468378472.670036) can0 02000300#0000
(1468378472.680032) can0 02000300#0000
(1468378472.690029) can0 02000300#0000
(1468378472.700037) can0 02000300#0000
(1468378472.710038) can0 02000300#0000
(1468378472.714370) can0 140C0201#0000
(1468378472.715330) can0 00E#50C01C8F00000000
(1468378472.719923) can0 02000300#0000
(1468378472.730064) can0 02000300#0000
(1468378472.734285) can0 0C140200#C1
(1468378472.740202) can0 02000300#0000
(1468378472.741190) can0 03C30F0F#87878787878787
(1468378472.750011) can0 02000300#0000
(1468378472.760031) can0 02000300#0000
(1468378472.763927) can0 00E#50C01C8F00000000
(1468378472.764640) can0 14300200#0000
(1468378472.770038) can0 02000300#0000
(1468378472.780039) can0 02000300#0000
(1468378472.790087) can0 02000300#0000
(1468378472.797344) can0 0C140400#82
(1468378472.800031) can0 02000300#0000
(1468378472.810035) can0 02000300#0000
(1468378472.814678) can0 00E#50C01C8F00000000
(1468378472.820036) can0 02000300#0000
(1468378472.830035) can0 02000300#0000
(1468378472.840200) can0 02000300#0000
(1468378472.841192) can0 03C30F0F#87878787878787
(1468378472.850069) can0 02000300#0000
(1468378472.860026) can0 02000300#0000
(1468378472.864017) can0 00E#50C01C8F00000000
(1468378472.870031) can0 02000300#0000
(1468378472.880026) can0 02000300#0000
(1468378472.890082) can0 02000300#0000
(1468378472.900039) can0 02000300#0000
(1468378472.910034) can0 02000300#0000
(1468378472.914677) can0 00E#50C01C8F00000000
(1468378472.920030) can0 02000300#0000
(1468378472.930035) can0 02000300#0000
(1468378472.940164) can0 02000300#0000
(1468378472.941152) can0 03C30F0F#87878787878787
(1468378472.950069) can0 02000300#0000
(1468378472.960057) can0 02000300#0000
(1468378472.964018) can0 00E#50C01C8F00000000
(1468378472.964746) can0 140C0201#0000
(1468378472.965385) can0 1C0C0200#28
(1468378472.969928) can0 02000300#0000
(1468378472.980032) can0 02000300#0000
(1468378472.990089) can0 02000300#0000
(1468378472.999965) can0 02000300#0000
(1468378473.010035) can0 02000300#0000
(1468378473.014606) can0 00E#50C01C8F00000000
(1468378473.015318) can0 14300200#0000
(1468378473.020044) can0 02000300#0000
(1468378473.030036) can0 02000300#0000
(1468378473.034881) can0 1C300204#E08A0200C4590200
(1468378473.040169) can0 02000300#0000
(1468378473.041161) can0 03C30F0F#87878787878787
(1468378473.050031) can0 02000300#0000
(1468378473.052145) can0 0C000400#D5D5
(1468378473.060071) can0 02000300#0000
(1468378473.064017) can0 00E#50C01C8F00000000
(1468378473.070064) can0 02000300#0000
(1468378473.080028) can0 02000300#0000
(1468378473.090089) can0 02000300#0000
(1468378473.100041) can0 02000300#0000
(1468378473.110034) can0 02000300#0000
(1468378473.114677) can0 00E#50C01C8F00000000
(1468378473.120030) can0 02000300#0000
(1468378473.130035) can0 02000300#0000
(1468378473.140174) can0 02000300#0000
(1468378473.141168) can0 03C30F0F#87878787878787
(1468378473.150037) can0 02000300#0000
(1468378473.160033) can0 02000300#0000
(1468378473.164017) can0 00E#50C01C8F00000000
(1468378473.170071) can0 02000300#0000
(1468378473.180071) can0 02000300#0000
(1468378473.190096) can0 02000300#0000
(1468378473.200036) can0 02000300#0000
(1468378473.210041) can0 02000300#0000
(1468378473.214684) can0 00E#50C01C8F00000000
(1468378473.215413) can0 140C0201#0000
(1468378473.219995) can0 02000300#0000
(1468378473.230035) can0 02000300#0000
(1468378473.240175) can0 02000300#0000
(1468378473.241167) can0 03C30F0F#87878787878787
(1468378473.249928) can0 02000300#0000
(1468378473.260037) can0 02000300#0000
(1468378473.264016) can0 00E#50C01C8F00000000
(1468378473.264729) can0 14300200#0000
(1468378473.270040) can0 02000300#0000
(1468378473.280042) can0 02000300#0000
(1468378473.290155) can0 02000300#0000
(1468378473.300045) can0 02000300#0000
(1468378473.310038) can0 02000300#0000
(1468378473.314677) can0 00E#50C01C8F00000000
(1468378473.320030) can0 02000300#0000
(1468378473.330036) can0 02000300#0000
(1468378473.340180) can0 02000300#0000
(1468378473.341167) can0 03C30F0F#87878787878787
(1468378473.350037) can0 02000300#0000
(1468378473.360033) can0 02000300#0000
(1468378473.364025) can0 00E#50C01C8F00000000
(1468378473.370038) can0 02000300#0000
(1468378473.380038) can0 02000300#0000
(1468378473.390113) can0 02000300#0000
(1468378473.400059) can0 02000300#0000
(1468378473.410040) can0 02000300#0000
(1468378473.414683) can0 00E#50C01C8F00000000
(1468378473.420034) can0 02000300#0000
(1468378473.430042) can0 02000300#0000
(1468378473.440174) can0 02000300#0000
(1468378473.441166) can0 03C30F0F#87878787878787
(1468378473.450036) can0 02000300#0000
(1468378473.460036) can0 02000300#0000
(1468378473.464023) can0 00E#50C01C8F00000000
(1468378473.464752) can0 140C0201#0000
(1468378473.470038) can0 02000300#0000
(1468378473.480034) can0 02000300#0000
(1468378473.490087) can0 02000300#0000
(1468378473.499992) can0 02000300#0000
(1468378473.510072) can0 02000300#0000
(1468378473.514643) can0 00E#50C01C8F00000000
(1468378473.515355) can0 14300200#0000
(1468378473.520037) can0 02000300#0000
(1468378473.529970) can0 02000300#0000
(1468378473.540178) can0 02000300#0000
(1468378473.541166) can0 03C30F0F#87878787878787
(1468378473.550036) can0 02000300#0000
(1468378473.560032) can0 02000300#0000
(1468378473.561767) can0 0C000400#0000
(1468378473.564015) can0 00E#50C01C8F00000000
(1468378473.570037) can0 02000300#0000
(1468378473.580036) can0 02000300#0000
(1468378473.590088) can0 02000300#0000
(1468378473.600034) can0 02000300#0000
(1468378473.610064) can0 02000300#0000
(1468378473.614682) can0 00E#50C01C8F00000000
(1468378473.620073) can0 02000300#0000
(1468378473.630041) can0 02000300#0000
(1468378473.634541) can0 0C140200#C0
(1468378473.640173) can0 02000300#0000
(1468378473.641166) can0 03C30F0F#87878787878787
(1468378473.650044) can0 02000300#0000
(1468378473.660044) can0 02000300#0000
(1468378473.664023) can0 00E#50C01C8F00000000
(1468378473.670038) can0 02000300#0000
(1468378473.680034) can0 02000300#0000
(1468378473.690086) can0 02000300#0000
(1468378473.700039) can0 02000300#0000
(1468378473.710040) can0 02000300#0000
(1468378473.714683) can0 00E#50C01C8F00000000
(1468378473.715411) can0 140C0201#0000
(1468378473.720069) can0 02000300#0000
(1468378473.730074) can0 02000300#0000
(1468378473.734559) can0 0C140200#C1
(1468378473.740180) can0 02000300#0000
(1468378473.741167) can0 03C30F0F#87878787878787
(1468378473.749997) can0 02000300#0000
(1468378473.760032) can0 02000300#0000
(1468378473.764025) can0 00E#50C01C8F00000000
(1468378473.764737) can0 14300200#0000
(1468378473.770039) can0 02000300#0000
(1468378473.779935) can0 02000300#0000
(1468378473.790088) can0 02000300#0000
(1468378473.796506) can0 0C140400#82
(1468378473.800041) can0 02000300#0000
(1468378473.810021) can0 02000300#0000
(1468378473.814687) can0 00E#50C01C8F00000000
(1468378473.820038) can0 02000300#0000
(1468378473.830070) can0 02000300#0000
(1468378473.840209) can0 02000300#0000
(1468378473.841201) can0 03C30F0F#87878787878787
(1468378473.850039) can0 02000300#0000
(1468378473.860035) can0 02000300#0000
(1468378473.864019) can0 00E#50C01C8F00000000
(1468378473.870042) can0 02000300#0000
(1468378473.880037) can0 02000300#0000
(1468378473.890085) can0 02000300#0000
(1468378473.900041) can0 02000300#0000
(1468378473.910036) can0 02000300#0000
(1468378473.914679) can0 00E#50C01C8F00000000
(1468378473.920041) can0 02000300#0000
(1468378473.930038) can0 02000300#0000
(1468378473.940214) can0 02000300#0000
(1468378473.941202) can0 03C30F0F#87878787878787
(1468378473.950071) can0 02000300#0000
(1468378473.960035) can0 02000300#0000
(1468378473.964027) can0 00E#50C01C8F00000000
(1468378473.964668) can0 1C0C0200#28
(1468378473.965396) can0 140C0201#0000
(1468378473.970042) can0 02000300#0000
(1468378473.980042) can0 02000300#0000
(1468378473.990091) can0 02000300#0000
(1468378474.000038) can0 02000300#0000
(1468378474.010040) can0 02000300#0000
(1468378474.014688) can0 00E#50C01C8F00000000
(1468378474.015399) can0 14300200#0000
(1468378474.020046) can0 02000300#0000
(1468378474.029942) can0 02000300#0000
(1468378474.040178) can0 02000300#0000
(1468378474.041170) can0 03C30F0F#87878787878787
(1468378474.045163) can0 1C300204#E08A0200C4590200
(1468378474.050073) can0 02000300#0000
(1468378474.060002) can0 02000300#0000
(1468378474.064021) can0 00E#50C01C8F00000000
(1468378474.070043) can0 02000300#0000
(1468378474.080038) can0 02000300#0000
(1468378474.090091) can0 02000300#0000
(1468378474.100044) can0 02000300#0000
(1468378474.110044) can0 02000300#0000
(1468378474.114680) can0 00E#50C01C8F00000000
(1468378474.120033) can0 02000300#0000
(1468378474.130038) can0 02000300#0000
(1468378474.140186) can0 02000300#0000
(1468378474.141179) can0 03C30F0F#87878787878787
(1468378474.150041) can0 02000300#0000
(1468378474.160068) can0 02000300#0000
(1468378474.164029) can0 00E#50C01C8F00000000
(1468378474.170074) can0 02000300#0000
(1468378474.180042) can0 02000300#0000
(1468378474.190091) can0 02000300#0000
(1468378474.200039) can0 02000300#0000
(1468378474.210036) can0 02000300#0000
(1468378474.214688) can0 00E#50C01C8F00000000
(1468378474.215416) can0 140C0201#0000
(1468378474.220046) can0 02000300#0000
(1468378474.230046) can0 02000300#0000
(1468378474.240178) can0 02000300#0000
(1468378474.241170) can0 03C30F0F#87878787878787
(1468378474.250040) can0 02000300#0000
(1468378474.260048) can0 02000300#0000
(1468378474.264027) can0 00E#50C01C8F00000000
(1468378474.264836) can0 14300200#0000
(1468378474.270075) can0 02000300#0000
(1468378474.280022) can0 02000300#0000
(1468378474.290091) can0 02000300#0000
(1468378474.300040) can0 02000300#0000
(1468378474.309936) can0 02000300#0000
(1468378474.314688) can0 00E#50C01C8F00000000
(1468378474.320065) can0 02000300#0000
(1468378474.330067) can0 02000300#0000
(1468378474.340165) can0 02000300#0000
(1468378474.341155) can0 03C30F0F#87878787878787
(1468378474.350036) can0 02000300#0000
(1468378474.360036) can0 02000300#0000
(1468378474.364020) can0 00E#50C01C8F00000000
(1468378474.370042) can0 02000300#0000
(1468378474.380083) can0 02000300#0000
(1468378474.390118) can0 02000300#0000
(1468378474.400039) can0 02000300#0000
(1468378474.410044) can0 02000300#0000
(1468378474.414688) can0 00E#50C01C8F00000000
(1468378474.420037) can0 02000300#0000
(1468378474.430046) can0 02000300#0000
(1468378474.440178) can0 02000300#0000
(1468378474.441170) can0 03C30F0F#87878787878787
(1468378474.450048) can0 02000300#0000
(1468378474.460048) can0 02000300#0000
(1468378474.464027) can0 00E#50C01C8F00000000
(1468378474.464899) can0 140C0201#0000
(1468378474.470154) can0 02000300#0000
(1468378474.470717) can0 0C000303#
(1468378474.480038) can0 02000300#0000
(1468378474.490123) can0 02000300#0000
(1468378474.500076) can0 02000300#0000
(1468378474.510044) can0 02000300#0000
(1468378474.514687) can0 00E#50C01C8F00000000
(1468378474.515400) can0 14300200#0000
(1468378474.520041) can0 02000300#0000
(1468378474.530042) can0 02000300#0000
(1468378474.540183) can0 02000300#0000
(1468378474.541170) can0 03C30F0F#87878787878787
(1468378474.550048) can0 02000300#0000
(1468378474.559932) can0 02000300#0000
(1468378474.564028) can0 00E#50C01C8F00000000
(1468378474.570042) can0 02000300#0000
(1468378474.580042) can0 02000300#0000
(1468378474.580981) can0 0C000400#1510
(1468378474.590019) can0 02000300#0000
(1468378474.600071) can0 02000300#0000
(1468378474.610076) can0 02000300#0000
(1468378474.614695) can0 00E#50C01C8F00000000
(1468378474.620053) can0 02000300#0000
(1468378474.630038) can0 02000300#0000
(1468378474.634817) can0 0C140200#C0
(1468378474.640185) can0 02000300#0000
(1468378474.641179) can0 03C30F0F#87878787878787
(1468378474.650048) can0 02000300#0000
(1468378474.660089) can0 02000300#0000
(1468378474.664028) can0 00E#50C01C8F00000000
(1468378474.670042) can0 02000300#0000
(1468378474.680037) can0 02000300#0000
(1468378474.690098) can0 02000300#0000
(1468378474.700043) can0 02000300#0000
(1468378474.710072) can0 02000300#0000
(1468378474.714687) can0 00E#50C01C8F00000000
(1468378474.715416) can0 140C0201#0000
(1468378474.720072) can0 02000300#0000
(1468378474.730042) can0 02000300#0000
(1468378474.734834) can0 0C140200#C1
(1468378474.740193) can0 02000300#0000
(1468378474.741179) can0 03C30F0F#87878787878787
(1468378474.750049) can0 02000300#0000
(1468378474.751083) can0 0C000400#1515
(1468378474.760045) can0 02000300#0000
(1468378474.764029) can0 00E#50C01C8F00000000
(1468378474.764950) can0 14300200#0000
(1468378474.770051) can0 02000300#0000
(1468378474.780044) can0 02000300#0000
(1468378474.790098) can0 02000300#0000
(1468378474.795719) can0 0C140400#82
(1468378474.800042) can0 02000300#0000
(1468378474.810005) can0 02000300#0000
(1468378474.814693) can0 00E#50C01C8F00000000
(1468378474.820078) can0 02000300#0000
(1468378474.830070) can0 02000300#0000
(1468378474.840111) can0 02000300#0000
(1468378474.841103) can0 03C30F0F#87878787878787
(1468378474.850045) can0 02000300#0000
(1468378474.860045) can0 02000300#0000
(1468378474.864024) can0 00E#50C01C8F00000000
(1468378474.870022) can0 02000300#0000
(1468378474.880042) can0 02000300#0000
(1468378474.890089) can0 02000300#0000
(1468378474.900046) can0 02000300#0000
(1468378474.910050) can0 02000300#0000
(1468378474.914605) can0 00E#50C01C8F00000000
(1468378474.920038) can0 02000300#0000
(1468378474.930071) can0 02000300#0000
(1468378474.940220) can0 02000300#0000
(1468378474.941206) can0 03C30F0F#87878787878787
(1468378474.950044) can0 02000300#0000
(1468378474.960041) can0 02000300#0000
(1468378474.964032) can0 00E#50C01C8F00000000
(1468378474.964906) can0 1C0C0200#28
(1468378474.965634) can0 140C0201#0000
(1468378474.970048) can0 02000300#0000
(1468378474.980048) can0 02000300#0000
(1468378474.990097) can0 02000300#0000
(1468378475.000037) can0 02000300#0000
(1468378475.010051) can0 02000300#0000
(1468378475.014693) can0 00E#50C01C8F00000000
(1468378475.015405) can0 14300200#0000
(1468378475.020040) can0 02000300#0000
(1468378475.030048) can0 02000300#0000
(1468378475.040225) can0 02000300#0000
(1468378475.041216) can0 03C30F0F#87878787878787
(1468378475.050081) can0 02000300#0000
(1468378475.055442) can0 1C300204#E08A0200C4590200
(1468378475.060049) can0 02000300#0000
(1468378475.064027) can0 00E#50C01C8F00000000
(1468378475.070050) can0 02000300#0000
(1468378475.080044) can0 02000300#0000
(1468378475.090018) can0 02000300#0000
(1468378475.100050) can0 02000300#0000
(1468378475.110043) can0 02000300#0000
(1468378475.114694) can0 00E#50C01C8F00000000
(1468378475.119975) can0 02000300#0000
(1468378475.130053) can0 02000300#0000
(1468378475.140191) can0 02000300#0000
(1468378475.141185) can0 03C30F0F#87878787878787
(1468378475.150078) can0 02000300#0000
(1468378475.160074) can0 02000300#0000
(1468378475.163930) can0 00E#50C01C8F00000000
(1468378475.170048) can0 02000300#0000
(1468378475.180048) can0 02000300#0000
(1468378475.190097) can0 02000300#0000
(1468378475.200045) can0 02000300#0000
(1468378475.210049) can0 02000300#0000
(1468378475.214693) can0 00E#50C01C8F00000000
(1468378475.215421) can0 140C0201#0000
(1468378475.220051) can0 02000300#0000
(1468378475.230052) can0 02000300#0000
(1468378475.240192) can0 02000300#0000
(1468378475.241184) can0 03C30F0F#87878787878787
(1468378475.250045) can0 02000300#0000
(1468378475.260078) can0 02000300#0000
(1468378475.260793) can0 0C000400#1510
(1468378475.264033) can0 00E#50C01C8F00000000
(1468378475.265074) can0 14300200#0000
(1468378475.270080) can0 02000300#0000
(1468378475.280044) can0 02000300#0000
(1468378475.290097) can0 02000300#0000
(1468378475.300050) can0 02000300#0000
(1468378475.310050) can0 02000300#0000
(1468378475.314685) can0 00E#50C01C8F00000000
(1468378475.320047) can0 02000300#0000
(1468378475.330052) can0 02000300#0000
(1468378475.340124) can0 02000300#0000
(1468378475.341112) can0 03C30F0F#87878787878787
(1468378475.350053) can0 02000300#0000
(1468378475.360041) can0 02000300#0000
(1468378475.364034) can0 00E#50C01C8F00000000
(1468378475.370007) can0 02000300#0000
(1468378475.380080) can0 02000300#0000
(1468378475.390090) can0 02000300#0000
(1468378475.400020) can0 02000300#0000
(1468378475.410049) can0 02000300#0000
(1468378475.414613) can0 00E#50C01C8F00000000
(1468378475.420051) can0 02000300#0000
(1468378475.430043) can0 02000300#0000
(1468378475.440191) can0 02000300#0000
(1468378475.441184) can0 03C30F0F#87878787878787
(1468378475.450053) can0 02000300#0000
(1468378475.460046) can0 02000300#0000
(1468378475.464025) can0 00E#50C01C8F00000000
(1468378475.465138) can0 140C0201#0000
(1468378475.470048) can0 02000300#0000
(1468378475.480084) can0 02000300#0000
(1468378475.490128) can0 02000300#0000
(1468378475.500049) can0 02000300#0000
(1468378475.510050) can0 02000300#0000
(1468378475.514685) can0 00E#50C01C8F00000000
(1468378475.515398) can0 14300200#0000
(1468378475.520047) can0 02000300#0000
(1468378475.530055) can0 02000300#0000
(1468378475.540192) can0 02000300#0000
(1468378475.541184) can0 03C30F0F#87878787878787
(1468378475.550050) can0 02000300#0000
(1468378475.560050) can0 02000300#0000
(1468378475.564035) can0 00E#50C01C8F00000000
(1468378475.570056) can0 02000300#0000
(1468378475.580048) can0 02000300#0000
(1468378475.590129) can0 02000300#0000
(1468378475.600077) can0 02000300#0000
(1468378475.600781) can0 0C000400#1515
(1468378475.610051) can0 02000300#0000
(1468378475.614702) can0 00E#50C01C8F00000000
(1468378475.619947) can0 02000300#0000
(1468378475.630052) can0 02000300#0000
(1468378475.635088) can0 0C140200#C0
(1468378475.640192) can0 02000300#0000
(1468378475.641186) can0 03C30F0F#87878787878787
(1468378475.649983) can0 02000300#0000
(1468378475.660049) can0 02000300#0000
(1468378475.664027) can0 00E#50C01C8F00000000
(1468378475.670049) can0 02000300#0000
(1468378475.680045) can0 02000300#0000
(1468378475.690106) can0 02000300#0000
(1468378475.700082) can0 02000300#0000
(1468378475.710091) can0 02000300#0000
(1468378475.714694) can0 00E#50C01C8F00000000
(1468378475.715423) can0 140C0201#0000
(1468378475.720040) can0 02000300#0000
(1468378475.730053) can0 02000300#0000
(1468378475.735113) can0 0C140200#C1
(1468378475.740200) can0 02000300#0000
(1468378475.741187) can0 03C30F0F#87878787878787
(1468378475.750049) can0 02000300#0000
(1468378475.760044) can0 02000300#0000
(1468378475.764037) can0 00E#50C01C8F00000000
(1468378475.765213) can0 14300200#0000
(1468378475.770051) can0 02000300#0000
(1468378475.780051) can0 02000300#0000
(1468378475.790100) can0 02000300#0000
(1468378475.795127) can0 0C140400#82
(1468378475.800046) can0 02000300#0000
(1468378475.810077) can0 02000300#0000
(1468378475.814693) can0 00E#50C01C8F00000000
(1468378475.820083) can0 02000300#0000
(1468378475.830046) can0 02000300#0000
(1468378475.840198) can0 02000300#0000
(1468378475.841191) can0 03C30F0F#87878787878787
(1468378475.850052) can0 02000300#0000
(1468378475.860045) can0 02000300#0000
(1468378475.864032) can0 00E#50C01C8F00000000
(1468378475.870014) can0 02000300#0000
(1468378475.880050) can0 02000300#0000
(1468378475.890098) can0 02000300#0000
(1468378475.899942) can0 02000300#0000
(1468378475.910049) can0 02000300#0000
(1468378475.914604) can0 00E#50C01C8F00000000
(1468378475.920085) can0 02000300#0000
(1468378475.930059) can0 02000300#0000
(1468378475.940187) can0 02000300#0000
(1468378475.941175) can0 03C30F0F#87878787878787
(1468378475.950052) can0 02000300#0000
(1468378475.960048) can0 02000300#0000
(1468378475.964033) can0 00E#50C01C8F00000000
(1468378475.965185) can0 1C0C0200#28
(1468378475.965914) can0 140C0201#0000
(1468378475.970055) can0 02000300#0000
(1468378475.980056) can0 02000300#0000
(1468378475.990105) can0 02000300#0000
(1468378476.000045) can0 02000300#0000
(1468378476.010050) can0 02000300#0000
(1468378476.014701) can0 00E#50C01C8F00000000
(1468378476.015412) can0 14300200#0000
(1468378476.020051) can0 02000300#0000
(1468378476.030083) can0 02000300#0000
(1468378476.040231) can0 02000300#0000
(1468378476.041224) can0 03C30F0F#87878787878787
(1468378476.050054) can0 02000300#0000
(1468378476.060054) can0 02000300#0000
(1468378476.064033) can0 00E#50C01C8F00000000
(1468378476.065737) can0 1C300204#E08A0200C4590200
(1468378476.070055) can0 02000300#0000
(1468378476.080051) can0 02000300#0000
(1468378476.090104) can0 02000300#0000
(1468378476.100057) can0 02000300#0000
(1468378476.109642) can0 0C000400#1510
(1468378476.110357) can0 02000300#0000
(1468378476.114693) can0 00E#50C01C8F00000000
(1468378476.120046) can0 02000300#0000
(1468378476.130052) can0 02000300#0000
(1468378476.140231) can0 02000300#0000
(1468378476.141224) can0 03C30F0F#87878787878787
(1468378476.150005) can0 02000300#0000
(1468378476.160041) can0 02000300#0000
(1468378476.164042) can0 00E#50C01C8F00000000
(1468378476.170055) can0 02000300#0000
(1468378476.179984) can0 02000300#0000
(1468378476.190104) can0 02000300#0000
(1468378476.200052) can0 02000300#0000
(1468378476.210057) can0 02000300#0000
(1468378476.214701) can0 00E#50C01C8F00000000
(1468378476.215429) can0 140C0201#0000
(1468378476.220059) can0 02000300#0000
(1468378476.230051) can0 02000300#0000
(1468378476.240191) can0 02000300#0000
(1468378476.241183) can0 03C30F0F#87878787878787
(1468378476.250080) can0 02000300#0000
(1468378476.260082) can0 02000300#0000
(1468378476.264033) can0 00E#50C01C8F00000000
(1468378476.265346) can0 14300200#0000
(1468378476.270056) can0 02000300#0000
(1468378476.280052) can0 02000300#0000
(1468378476.290105) can0 02000300#0000
(1468378476.300067) can0 02000300#0000
(1468378476.310046) can0 02000300#0000
(1468378476.314702) can0 00E#50C01C8F00000000
(1468378476.320047) can0 02000300#0000
(1468378476.330052) can0 02000300#0000
(1468378476.340205) can0 02000300#0000
(1468378476.341192) can0 03C30F0F#87878787878787
(1468378476.350062) can0 02000300#0000
(1468378476.360082) can0 02000300#0000
(1468378476.364034) can0 00E#50C01C8F00000000
(1468378476.370088) can0 02000300#0000
(1468378476.380048) can0 02000300#0000
(1468378476.390107) can0 02000300#0000
(1468378476.400012) can0 02000300#0000
(1468378476.410049) can0 02000300#0000
(1468378476.414701) can0 00E#50C01C8F00000000
(1468378476.420058) can0 02000300#0000
(1468378476.429955) can0 02000300#0000
(1468378476.440191) can0 02000300#0000
(1468378476.441184) can0 03C30F0F#87878787878787
(1468378476.449350) can0 0C000400#1515
(1468378476.450089) can0 02000300#0000
(1468378476.460031) can0 02000300#0000
(1468378476.464034) can0 00E#50C01C8F00000000
(1468378476.465436) can0 140C0201#0000
(1468378476.470090) can0 02000300#0000
(1468378476.480077) can0 02000300#0000
(1468378476.490107) can0 02000300#0000
(1468378476.500051) can0 02000300#0000
(1468378476.510051) can0 02000300#0000
(1468378476.514695) can0 00E#50C01C8F00000000
(1468378476.515448) can0 14300200#0000
(1468378476.520048) can0 02000300#0000
(1468378476.530054) can0 02000300#0000
(1468378476.540206) can0 02000300#0000
(1468378476.541193) can0 03C30F0F#87878787878787
(1468378476.550055) can0 02000300#0000
(1468378476.560051) can0 02000300#0000
(1468378476.564035) can0 00E#50C01C8F00000000
(1468378476.570057) can0 02000300#0000
(1468378476.580082) can0 02000300#0000
(1468378476.590138) can0 02000300#0000
(1468378476.600046) can0 02000300#0000
(1468378476.610059) can0 02000300#0000
(1468378476.614703) can0 00E#50C01C8F00000000
(1468378476.620060) can0 02000300#0000
(1468378476.630061) can0 02000300#0000
(1468378476.635369) can0 0C140200#C0
(1468378476.640200) can0 02000300#0000
(1468378476.641194) can0 03C30F0F#87878787878787
(1468378476.650056) can0 02000300#0000
(1468378476.660057) can0 02000300#0000
(1468378476.664044) can0 00E#50C01C8F00000000
(1468378476.670058) can0 02000300#0000
(1468378476.679949) can0 02000300#0000
(1468378476.690138) can0 02000300#0000
(1468378476.700091) can0 02000300#0000
(1468378476.709988) can0 02000300#0000
(1468378476.714694) can0 00E#50C01C8F00000000
(1468378476.715527) can0 140C0201#0000
(1468378476.720057) can0 02000300#0000
(1468378476.730054) can0 02000300#0000
(1468378476.735386) can0 0C140200#C1
(1468378476.740200) can0 02000300#0000
(1468378476.741188) can0 03C30F0F#87878787878787
(1468378476.750057) can0 02000300#0000
(1468378476.760053) can0 02000300#0000
(1468378476.764037) can0 00E#50C01C8F00000000
(1468378476.765470) can0 14300200#0000
(1468378476.770059) can0 02000300#0000
(1468378476.780060) can0 02000300#0000
(1468378476.790108) can0 02000300#0000
(1468378476.794056) can0 0C140400#82
(1468378476.800087) can0 02000300#0000
(1468378476.810083) can0 02000300#0000
(1468378476.814710) can0 00E#50C01C8F00000000
(1468378476.820060) can0 02000300#0000
(1468378476.830052) can0 02000300#0000
(1468378476.840199) can0 02000300#0000
(1468378476.841192) can0 03C30F0F#87878787878787
(1468378476.850053) can0 02000300#0000
(1468378476.860062) can0 02000300#0000
(1468378476.864041) can0 00E#50C01C8F00000000
(1468378476.870064) can0 02000300#0000
(1468378476.880051) can0 02000300#0000
(1468378476.890098) can0 02000300#0000
(1468378476.900055) can0 02000300#0000
(1468378476.910091) can0 02000300#0000
(1468378476.914701) can0 00E#50C01C8F00000000
(1468378476.920086) can0 02000300#0000
(1468378476.930027) can0 02000300#0000
(1468378476.940204) can0 02000300#0000
(1468378476.941192) can0 03C30F0F#87878787878787
(1468378476.950061) can0 02000300#0000
(1468378476.958950) can0 0C000400#1510
(1468378476.960009) can0 02000300#0000
(1468378476.964043) can0 00E#50C01C8F00000000
(1468378476.965444) can0 1C0C0200#28
(1468378476.966172) can0 140C0201#0000
(1468378476.970057) can0 02000300#0000
(1468378476.980058) can0 02000300#0000
(1468378476.990083) can0 02000300#0000
(1468378477.000054) can0 02000300#0000
(1468378477.010061) can0 02000300#0000
(1468378477.014703) can0 00E#50C01C8F00000000
(1468378477.015567) can0 14300200#0000
(1468378477.020094) can0 02000300#0000
(1468378477.030087) can0 02000300#0000
(1468378477.040202) can0 02000300#0000
(1468378477.041194) can0 03C30F0F#87878787878787
(1468378477.050056) can0 02000300#0000
(1468378477.060056) can0 02000300#0000
(1468378477.064036) can0 00E#50C01C8F00000000
(1468378477.070054) can0 02000300#0000
(1468378477.075998) can0 1C300204#E08A0200C4590200
(1468378477.080055) can0 02000300#0000
(1468378477.090115) can0 02000300#0000
(1468378477.100053) can0 02000300#0000
(1468378477.110061) can0 02000300#0000
(1468378477.114697) can0 00E#50C01C8F00000000
(1468378477.120050) can0 02000300#0000
(1468378477.130087) can0 02000300#0000
(1468378477.140234) can0 02000300#0000
(1468378477.141227) can0 03C30F0F#87878787878787
(1468378477.150057) can0 02000300#0000
(1468378477.160061) can0 02000300#0000
(1468378477.164045) can0 00E#50C01C8F00000000
(1468378477.170060) can0 02000300#0000
(1468378477.180056) can0 02000300#0000
(1468378477.190103) can0 02000300#0000
(1468378477.200056) can0 02000300#0000
(1468378477.209956) can0 02000300#0000
(1468378477.214713) can0 00E#50C01C8F00000000
(1468378477.215625) can0 140C0201#0000
(1468378477.220063) can0 02000300#0000
(1468378477.230063) can0 02000300#0000
(1468378477.240163) can0 02000300#0000
(1468378477.241155) can0 03C30F0F#87878787878787
(1468378477.250088) can0 02000300#0000
(1468378477.260057) can0 02000300#0000
(1468378477.264036) can0 00E#50C01C8F00000000
(1468378477.265605) can0 14300200#0000
(1468378477.270054) can0 02000300#0000
(1468378477.280055) can0 02000300#0000
(1468378477.290103) can0 02000300#0000
(1468378477.298654) can0 0C000400#1515
(1468378477.300097) can0 02000300#0000
(1468378477.310063) can0 02000300#0000
(1468378477.314698) can0 00E#50C01C8F00000000
(1468378477.320063) can0 02000300#0000
(1468378477.330095) can0 02000300#0000
(1468378477.340208) can0 02000300#0000
(1468378477.341196) can0 03C30F0F#87878787878787
(1468378477.350094) can0 02000300#0000
(1468378477.360086) can0 02000300#0000
(1468378477.364038) can0 00E#50C01C8F00000000
(1468378477.370056) can0 02000300#0000
(1468378477.380058) can0 02000300#0000
(1468378477.390105) can0 02000300#0000
(1468378477.400058) can0 02000300#0000
(1468378477.410062) can0 02000300#0000
(1468378477.414705) can0 00E#50C01C8F00000000
(1468378477.420064) can0 02000300#0000
(1468378477.430064) can0 02000300#0000
(1468378477.440196) can0 02000300#0000
(1468378477.441187) can0 03C30F0F#87878787878787
(1468378477.450057) can0 02000300#0000
(1468378477.460049) can0 02000300#0000
(1468378477.464045) can0 00E#50C01C8F00000000
(1468378477.465685) can0 140C0201#0000
(1468378477.470091) can0 02000300#0000
(1468378477.480055) can0 02000300#0000
(1468378477.490036) can0 02000300#0000
(1468378477.500061) can0 02000300#0000
(1468378477.510061) can0 02000300#0000
(1468378477.514705) can0 00E#50C01C8F00000000
(1468378477.515681) can0 14300200#0000
(1468378477.520027) can0 02000300#0000
(1468378477.530063) can0 02000300#0000
(1468378477.540208) can0 02000300#0000
(1468378477.541195) can0 03C30F0F#87878787878787
(1468378477.550057) can0 02000300#0000
(1468378477.560061) can0 02000300#0000
(1468378477.563949) can0 00E#50C01C8F00000000
(1468378477.570090) can0 02000300#0000
(1468378477.580099) can0 02000300#0000
(1468378477.590116) can0 02000300#0000
(1468378477.600056) can0 02000300#0000
(1468378477.610061) can0 02000300#0000
(1468378477.614712) can0 00E#50C01C8F00000000
(1468378477.620062) can0 02000300#0000
(1468378477.630063) can0 02000300#0000
(1468378477.635643) can0 0C140200#C0
(1468378477.640211) can0 02000300#0000
(1468378477.641204) can0 03C30F0F#87878787878787
(1468378477.650066) can0 02000300#0000
(1468378477.660066) can0 02000300#0000
(1468378477.664045) can0 00E#50C01C8F00000000
(1468378477.670067) can0 02000300#0000
(1468378477.680097) can0 02000300#0000
(1468378477.690148) can0 02000300#0000
(1468378477.700061) can0 02000300#0000
(1468378477.710061) can0 02000300#0000
(1468378477.714697) can0 00E#50C01C8F00000000
(1468378477.715785) can0 140C0201#0000
(1468378477.720059) can0 02000300#0000
(1468378477.730063) can0 02000300#0000
(1468378477.735668) can0 0C140200#C1
(1468378477.740137) can0 02000300#0000
(1468378477.741127) can0 03C30F0F#87878787878787
(1468378477.750067) can0 02000300#0000
(1468378477.760055) can0 02000300#0000
(1468378477.764047) can0 00E#50C01C8F00000000
(1468378477.765752) can0 14300200#0000
(1468378477.769997) can0 02000300#0000
(1468378477.780062) can0 02000300#0000
(1468378477.790150) can0 02000300#0000
(1468378477.793234) can0 0C140400#82
(1468378477.800107) can0 02000300#0000
(1468378477.808243) can0 0C000400#1510
(1468378477.810068) can0 02000300#0000
(1468378477.814626) can0 00E#50C01C8F00000000
(1468378477.820061) can0 02000300#0000
(1468378477.830061) can0 02000300#0000
(1468378477.840208) can0 02000300#0000
(1468378477.841197) can0 03C30F0F#87878787878787
(1468378477.850068) can0 02000300#0000
(1468378477.860059) can0 02000300#0000
